2025-09-27 08:12:44,0B 06 01 96 00 64 69 5B 0B 86 03 22 63
2025-09-27 08:12:44,0B 06 01 97 00 78 39 52 0B 06 01 97 00 78 39 52
2025-09-27 08:12:44,0B 06 00 2C 00 00 48 A9 0B 06 00 2C 00 00 48 A9
2025-09-27 08:12:45,0B 03 00 01 00 01 D5 60 0B 03 02 00 91 E1 E9
2025-09-27 08:12:45,0B 03 00 03 00 03 F5 61 0B 03 06 00 9A 00 9C 00 9D 06 4E
2025-09-27 08:12:45,0B 03 00 65 00 02 D4 BE 0B 03 04 00 00 00 00 50 33
2025-09-27 08:12:46,0B 03 00 CA 00 02 E4 9F 0B 03 04 00 FF 00 01 A1 C3
2025-09-27 08:12:46,0B 03 00 3F 00 01 B4 AC 0B 03 02 00 15 E1 8A
2025-09-27 08:12:46,0B 03 01 5E 00 01 E4 8E 0B 03 02 00 00 20 45
2025-09-27 08:12:47,0B 03 01 58 00 01 04 8F 0B 03 02 00 00 20 45
2025-09-27 08:12:47,0B 06 01 91 01 2C D9 3C 0B 06 01 91 01 2C D9 3C
2025-09-27 08:12:47,0B 06 01 96 00 64 69 5B 0B 86 03 22 63
2025-09-27 08:12:48,0B 06 01 97 00 78 39 52 0B 06 01 97 00 78 39 52
2025-09-27 08:12:48,0B 06 00 2C 00 00 48 A9 0B 06 00 2C 00 00 48 A9
2025-09-27 08:12:48,0B 03 00 01 00 01 D5 60 0B 03 02 00 91 E1 E9
2025-09-27 08:12:49,0B 03 00 03 00 03 F5 61 0B 03 06 00 9A 00 9C 00 9D 06 4E
2025-09-27 08:12:49,0B 03 00 65 00 02 D4 BE 0B 03 04 00 00 00 00 50 33
2025-09-27 08:12:49,0B 03 00 CA 00 02 E4 9F 0B 03 04 00 FF 00 01 A1 C3
2025-09-27 08:12:50,0B 03 00 3F 00 01 B4 AC 0B 03 02 00 15 E1 8A
2025-09-27 08:12:50,0B 03 01 5E 00 01 E4 8E 0B 03 02 00 00 20 45
2025-09-27 08:12:50,0B 03 01 58 00 01 04 8F 0B 03 02 00 00 20 45
2025-09-27 08:12:51,0B 06 01 91 01 2C D9 3C 0B 06 01 91 01 2C D9 3C
2025-09-27 08:12:51,0B 06 01 96 00 64 69 5B 0B 86 03 22 63
2025-09-27 08:12:51,0B 06 01 97 00 78 39 52 0B 06 01 97 00 78 39 52
2025-09-27 08:12:52,0B 06 00 29 00 02 D9 69 0B 06 00 29 00 02 D9 69
2025-09-27 08:12:52,0B 10 01 FA 00 02 04 00 02 00 0B B0 DB 0B 10 01 FA 00 02 60 AF
2025-09-27 08:12:52,0B 06 02 09 00 00 58 DA 0B 06 02 09 00 00 58 DA
2025-09-27 08:12:53,0B 06 02 0F 00 78 B8 F9 0B 06 02 0F 00 78 B8 F9
2025-09-27 08:12:53,0B 06 02 3D 00 01 D8 D4 0B 06 02 3D 00 01 D8 D4
2025-09-27 08:12:53,0B 10 02 45 00 03 06 FF FF FE D4 01 2C 96 70 0B 10 02 45 00 03 90 CF
2025-09-27 08:12:54,0B 10 02 4A 00 03 06 FF FF 00 64 01 CC 97 C7 0B 10 02 4A 00 03 A0 CC
2025-09-27 08:12:54,0B 06 02 BF 00 01 78 FC 0B 06 02 BF 00 01 78 FC
2025-09-27 08:12:54,0B 10 02 CF 00 02 04 00 01 00 32 57 12 0B 10 02 CF 00 02 70 E5
2025-09-27 08:12:55,0B 10 02 F9 00 04 08 00 01 00 0B 00 00 00 03 91 22
2025-09-27 08:12:55,0B 10 02 F9 00 04 10 E9
2025-09-27 08:12:55,0B 06 03 27 00 00 39 2F 0B 06 03 27 00 00 39 2F
2025-09-27 08:12:55,0B 06 03 29 00 01 99 2C 0B 06 03 29 00 01 99 2C
2025-09-27 08:12:56,0B 06 03 2B 00 08 F8 EA 0B 06 03 2B 00 08 F8 EA
2025-09-27 08:12:56,0B 06 00 2C 00 00 48 A9 0B 06 00 2C 00 00 48 A9
2025-09-27 08:12:57,0B 03 00 01 00 01 D5 60 0B 03 02 00 91 E1 E9
2025-09-27 08:12:57,0B 03 00 03 00 03 F5 61 0B 03 06 00 9A 00 9C 00 9D 06 4E
2025-09-27 08:12:57,0B 03 00 65 00 02 D4 BE 0B 03 04 00 00 00 00 50 33
2025-09-27 08:12:57,0B 03 00 CA 00 02 E4 9F 0B 03 04 00 FF 00 01 A1 C3
2025-09-27 08:12:58,0B 03 00 3F 00 01 B4 AC 0B 03 02 00 15 E1 8A
2025-09-27 08:12:58,0B 03 01 5E 00 01 E4 8E 0B 03 02 00 00 20 45
2025-09-27 08:12:58,0B 03 01 58 00 01 04 8F 0B 03 02 00 00 20 45
2025-09-27 08:12:59,0B 06 01 91 01 2C D9 3C 0B 06 01 91 01 2C D9 3C
2025-09-27 08:12:59,0B 06 01 96 00 64 69 5B 0B 86 03 22 63
2025-09-27 08:12:59,0B 06 01 97 00 78 39 52 0B 06 01 97 00 78 39 52
2025-09-27 08:13:00,0B 06 00 2C 00 00 48 A9 0B 06 00 2C 00 00 48 A9
2025-09-27 08:13:00,0B 03 00 01 00 01 D5 60 0B 03 02 00 91 E1 E9
2025-09-27 08:13:01,0B 03 00 03 00 03 F5 61 0B 03 06 00 9A 00 9C 00 9D 06 4E
2025-09-27 08:13:01,0B 03 00 65 00 02 D4 BE 0B 03 04 00 00 00 00 50 33
2025-09-27 08:13:01,0B 03 00 CA 00 02 E4 9F 0B 03 04 00 FF 00 01 A1 C3
2025-09-27 08:13:02,0B 03 00 3F 00 01 B4 AC 0B 03 02 00 15 E1 8A
2025-09-27 08:13:02,0B 03 01 5E 00 01 E4 8E 0B 03 02 00 00 20 45
2025-09-27 08:13:02,0B 03 01 58 00 01 04 8F 0B 03 02 00 00 20 45
2025-09-27 08:13:03,0B 06 01 91 01 2C D9 3C 0B 06 01 91 01 2C D9 3C
2025-09-27 08:13:03,0B 06 01 96 00 64 69 5B 0B 86 03 22 63
2025-09-27 08:13:03,0B 06 01 97 00 78 39 52 0B 06 01 97 00 78 39 52
2025-09-27 09:10:58,0B 06 01 91 01 2C D9 3C 0B 06 01 91 01 2C D9 3C
2025-09-27 09:10:58,0B 06 01 96 00 64 69 5B 0B 86 03 22 63
2025-09-27 09:10:58,0B 06 01 97 00 78 39 52 0B 06 01 97 00 78 39 52
2025-09-27 09:10:59,0B 06 00 29 00 02 D9 69 0B 06 00 29 00 02 D9 69
2025-09-27 09:10:59,0B 10 01 FA 00 02 04 00 02 00 0B B0 DB 0B 10 01 FA 00 02 60 AF
2025-09-27 09:10:59,0B 06 02 09 00 00 58 DA 0B 06 02 09 00 00 58 DA
2025-09-27 09:11:00,0B 06 02 0F 00 78 B8 F9 0B 06 02 0F 00 78 B8 F9
2025-09-27 09:11:00,0B 06 02 3D 00 01 D8 D4 0B 06 02 3D 00 01 D8 D4
2025-09-27 09:11:00,0B 10 02 45 00 03 06 FF FF FE D4 01 2C 96 70 0B 10 02 45 00 03 90 CF
2025-09-27 09:11:01,0B 10 02 4A 00 03 06 FF FF 00 64 01 CC 97 C7 0B 10 02 4A 00 03 A0 CC
2025-09-27 09:11:01,0B 06 02 BF 00 01 78 FC 0B 06 02 BF 00 01 78 FC
2025-09-27 09:11:01,0B 10 02 CF 00 02 04 00 01 00 32 57 12 0B 10 02 CF 00 02 70 E5
2025-09-27 09:11:02,0B 10 02 F9 00 04 08 00 01 00 0B 00 00 00 03 91 22 0B 10 02 F9 00 04 10 E9
2025-09-27 09:11:02,0B 06 03 27 00 00 39 2F 0B 06 03 27 00 00 39 2F
2025-09-27 09:11:02,0B 06 03 29 00 01 99 2C 0B 06 03 29 00 01 99 2C
2025-09-27 09:11:03,0B 06 03 2B 00 08 F8 EA 0B 06 03 2B 00 08 F8 EA
2025-09-27 09:11:03,0B 06 00 2C 00 00 48 A9 0B 06 00 2C 00 00 48 A9
2025-09-27 09:11:03,0B 03 00 01 00 01 D5 60 0B 03 02 00 A0 20 3D
2025-09-27 09:11:04,0B 03 00 03 00 03 F5 61 0B 03 06 00 9D 00 9C 00 A1 B3 9F
2025-09-27 09:11:04,0B 03 00 65 00 02 D4 BE 0B 03 04 00 00 00 00 50 33
2025-09-27 09:11:05,0B 03 00 CA 00 02 E4 9F 0B 03 04 00 FF 00 01 A1 C3
2025-09-27 09:11:05,0B 03 00 3F 00 01 B4 AC 0B 03 02 00 15 E1 8A
2025-09-27 09:11:05,0B 03 01 5E 00 01 E4 8E 0B 03 02 00 00 20 45
2025-09-27 09:11:05,0B 03 01 58 00 01 04 8F 0B 03 02 00 00 20 45
2025-09-27 09:11:06,0B 06 01 91 01 2C D9 3C 0B 06 01 91 01 2C D9 3C
2025-09-27 09:11:06,0B 06 01 96 00 64 69 5B 0B 86 03 22 63
2025-09-27 09:11:06,0B 06 01 97 00 78 39 52 0B 06 01 97 00 78 39 52
2025-09-27 09:11:07,0B 06 00 2C 00 00 48 A9 0B 06 00 2C 00 00 48 A9
2025-09-27 09:11:07,0B 03 00 01 00 01 D5 60 0B 03 02 00 A0 20 3D
2025-09-27 09:11:08,0B 03 00 03 00 03 F5 61 0B 03 06 00 9D 00 9C 00 A1 B3 9F
2025-09-27 09:11:08,0B 03 00 65 00 02 D4 BE 0B 03 04 00 00 00 00 50 33
2025-09-27 09:11:08,0B 03 00 CA 00 02 E4 9F 0B 03 04 00 FF 00 01 A1 C3
2025-09-27 09:11:09,0B 03 00 3F 00 01 B4 AC 0B 03 02 00 15 E1 8A
2025-09-27 09:11:09,0B 03 01 5E 00 01 E4 8E 0B 03 02 00 00 20 45
2025-09-27 09:11:09,0B 03 01 58 00 01 04 8F 0B 03 02 00 00 20 45
2025-09-27 09:11:10,0B 06 01 91 01 2C D9 3C 0B 06 01 91 01 2C D9 3C
2025-09-27 09:11:10,0B 06 01 96 00 64 69 5B 0B 86 03 22 63
2025-09-27 09:11:10,0B 06 01 97 00 78 39 52 0B 06 01 97 00 78 39 52
2025-09-27 09:11:11,0B 06 00 2C 00 00 48 A9 0B 06 00 2C 00 00 48 A9
2025-09-27 09:11:11,0B 03 00 01 00 01 D5 60 0B 03 02 00 A0 20 3D
2025-09-27 09:11:11,0B 03 00 03 00 03 F5 61 0B 03 06 00 9D 00 9C 00 A1 B3 9F
2025-09-27 09:11:12,0B 03 00 65 00 02 D4 BE 0B 03 04 00 00 00 00 50 33
2025-09-27 09:11:12,0B 03 00 CA 00 02 E4 9F 0B 03 04 00 FF 00 01 A1 C3
2025-09-27 09:11:12,0B 03 00 3F 00 01 B4 AC 0B 03 02 00 15 E1 8A
2025-09-27 09:11:13,0B 03 01 5E 00 01 E4 8E 0B 03 02 00 00 20 45
2025-09-27 09:11:13,0B 03 01 58 00 01 04 8F 0B 03 02 00 00 20 45
2025-09-27 09:11:13,0B 06 01 91 01 2C D9 3C 0B 06 01 91 01 2C D9 3C
2025-09-27 09:11:14,0B 06 01 96 00 64 69 5B 0B 86 03 22 63
2025-09-27 09:11:14,0B 06 01 97 00 78 39 52 0B 06 01 97 00 78 39 52
2025-09-27 09:11:14,0B 06 00 2C 00 00 48 A9 0B 06 00 2C 00 00 48 A9
2025-09-27 09:11:15,0B 03 00 01 00 01 D5 60 0B 03 02 00 A0 20 3D
2025-09-27 09:11:15,0B 03 00 03 00 03 F5 61 0B 03 06 00 9D 00 9C 00 A1 B3 9F
2025-09-27 09:11:15,0B 03 00 65 00 02 D4 BE 0B 03 04 00 00 00 00 50 33
2025-09-27 09:11:16,0B 03 00 CA 00 02 E4 9F 0B 03 04 00 FF 00 01 A1 C3
2025-09-27 09:11:16,0B 03 00 3F 00 01 B4 AC 0B 03 02 00 15 E1 8A
2025-09-27 09:11:16,0B 03 01 5E 00 01 E4 8E 0B 03 02 00 00 20 45
2025-09-27 09:11:17,0B 03 01 58 00 01 04 8F 0B 03 02 00 00 20 45
2025-09-27 09:11:17,0B 06 01 91 01 2C D9 3C 0B 06 01 91 01 2C D9 3C
2025-09-27 09:11:17,0B 06 01 96 00 64 69 5B 0B 86 03 22 63
2025-09-27 09:11:18,0B 06 01 97 00 78 39 52 0B 06 01 97 00 78 39 52
2025-09-27 09:11:18,0B 06 00 2C 00 00 48 A9 0B 06 00 2C 00 00 48 A9
2025-09-27 09:11:18,0B 03 00 01 00 01 D5 60 0B 03 02 00 A0 20 3D
2025-09-27 09:11:19,0B 03 00 03 00 03 F5 61 0B 03 06 00 9D 00 9C 00 A1 B3 9F
2025-09-27 09:11:19,0B 03 00 65 00 02 D4 BE 0B 03 04 00 00 00 00 50 33
2025-09-27 09:11:19,0B 03 00 CA 00 02 E4 9F 0B 03 04 00 FF 00 01 A1 C3
2025-09-27 09:11:20,0B 03 00 3F 00 01 B4 AC 0B 03 02 00 15 E1 8A
2025-09-27 09:11:20,0B 03 01 5E 00 01 E4 8E 0B 03 02 00 00 20 45
2025-09-27 09:11:20,0B 03 01 58 00 01 04 8F 0B 03 02 00 00 20 45
2025-09-27 09:11:21,0B 06 01 91 01 2C D9 3C 0B 06 01 91 01 2C D9 3C
2025-09-27 09:11:21,0B 06 01 96 00 64 69 5B 0B 86 03 22 63
2025-09-27 09:11:21,0B 06 01 97 00 78 39 52 0B 06 01 97 00 78 39 52
2025-09-27 09:11:22,0B 06 00 2C 00 00 48 A9 0B 06 00 2C 00 00 48 A9
2025-09-27 09:11:22,0B 03 00 01 00 01 D5 60 0B 03 02 00 A0 20 3D
2025-09-27 09:11:23,0B 03 00 03 00 03 F5 61 0B 03 06 00 9D 00 9C 00 A1 B3 9F
2025-09-27 09:11:23,0B 03 00 65 00 02 D4 BE 0B 03 04 00 00 00 00 50 33
2025-09-27 09:11:23,0B 03 00 CA 00 02 E4 9F 0B 03 04 00 FF 00 01 A1 C3
2025-09-27 09:11:23,0B 03 00 3F 00 01 B4 AC 0B 03 02 00 15 E1 8A
2025-09-27 09:11:24,0B 03 01 5E 00 01 E4 8E 0B 03 02 00 00 20 45
2025-09-27 09:11:24,0B 03 01 58 00 01 04 8F 0B 03 02 00 00 20 45
2025-09-27 09:11:24,0B 06 01 91 01 2C D9 3C 0B 06 01 91 01 2C D9 3C
2025-09-27 09:11:25,0B 06 01 96 00 64 69 5B 0B 86 03 22 63
2025-09-27 09:11:25,0B 06 01 97 00 78 39 52 0B 06 01 97 00 78 39 52
2025-09-27 09:11:25,0B 06 00 2C 00 00 48 A9 0B 06 00 2C 00 00 48 A9
2025-09-27 09:11:26,0B 03 00 01 00 01 D5 60 0B 03 02 00 A0 20 3D
2025-09-27 09:11:26,0B 03 00 03 00 03 F5 61 0B 03 06 00 9D 00 9C 00 A1 B3 9F
2025-09-27 09:11:27,0B 03 00 65 00 02 D4 BE 0B 03 04 00 00 00 00 50 33
2025-09-27 09:11:27,0B 03 00 CA 00 02 E4 9F 0B 03 04 00 FF 00 01 A1 C3
2025-09-27 09:11:27,0B 03 00 3F 00 01 B4 AC 0B 03 02 00 15 E1 8A
2025-09-27 09:11:27,0B 03 01 5E 00 01 E4 8E 0B 03 02 00 00 20 45
2025-09-27 09:11:28,0B 03 01 58 00 01 04 8F 0B 03 02 00 00 20 45
2025-09-27 09:11:28,0B 06 01 91 01 2C D9 3C 0B 06 01 91 01 2C D9 3C
2025-09-27 09:11:28,0B 06 01 96 00 64 69 5B 0B 86 03 22 63
2025-09-27 09:11:29,0B 06 01 97 00 78 39 52 0B 06 01 97 00 78 39 52
2025-09-27 09:11:29,0B 06 00 2C 00 00 48 A9 0B 06 00 2C 00 00 48 A9
2025-09-27 09:11:30,0B 03 00 01 00 01 D5 60 0B 03 02 00 A0 20 3D
2025-09-27 09:11:30,0B 03 00 03 00 03 F5 61 0B 03 06 00 9D 00 9C 00 A1 B3 9F
2025-09-27 09:11:30,0B 03 00 65 00 02 D4 BE 0B 03 04 00 00 00 00 50 33
2025-09-27 09:11:31,0B 03 00 CA 00 02 E4 9F 0B 03 04 00 FF 00 01 A1 C3
2025-09-27 09:11:31,0B 03 00 3F 00 01 B4 AC 0B 03 02 00 15 E1 8A
2025-09-27 09:11:31,0B 03 01 5E 00 01 E4 8E 0B 03 02 00 00 20 45
2025-09-27 09:11:31,0B 03 01 58 00 01 04 8F 0B 03 02 00 00 20 45
2025-09-27 09:11:32,0B 06 01 91 01 2C D9 3C 0B 06 01 91 01 2C D9 3C
2025-09-27 09:11:32,0B 06 01 96 00 64 69 5B 0B 86 03 22 63
2025-09-27 09:11:32,0B 06 01 97 00 78 39 52 0B 06 01 97 00 78 39 52
2025-09-27 09:11:33,0B 06 00 2C 00 00 48 A9 0B 06 00 2C 00 00 48 A9
2025-09-27 09:11:33,0B 03 00 01 00 01 D5 60 0B 03 02 00 A0 20 3D
2025-09-27 09:11:34,0B 03 00 03 00 03 F5 61 0B 03 06 00 9D 00 9C 00 A1 B3 9F
2025-09-27 09:11:34,0B 03 00 65 00 02 D4 BE 0B 03 04 00 00 00 00 50 33
2025-09-27 09:11:34,0B 03 00 CA 00 02 E4 9F 0B 03 04 00 FF 00 01 A1 C3
2025-09-27 09:11:35,0B 03 00 3F 00 01 B4 AC 0B 03 02 00 15 E1 8A
2025-09-27 09:11:35,0B 03 01 5E 00 01 E4 8E 0B 03 02 00 00 20 45
2025-09-27 09:11:35,0B 03 01 58 00 01 04 8F 0B 03 02 00 00 20 45
2025-09-27 09:11:35,0B 06 01 91 01 2C D9 3C 0B 06 01 91 01 2C D9 3C
2025-09-27 09:11:36,0B 06 01 96 00 64 69 5B 0B 86 03 22 63
2025-09-27 09:11:36,0B 06 01 97 00 78 39 52 0B 06 01 97 00 78 39 52
2025-09-27 09:11:37,0B 06 00 2C 00 00 48 A9 0B 06 00 2C 00 00 48 A9
2025-09-27 09:11:37,0B 03 00 01 00 01 D5 60 0B 03 02 00 A0 20 3D
2025-09-27 09:11:37,0B 03 00 03 00 03 F5 61 0B 03 06 00 9D 00 9C 00 A1 B3 9F
2025-09-27 09:11:38,0B 03 00 65 00 02 D4 BE 0B 03 04 00 00 00 00 50 33
2025-09-27 09:11:38,0B 03 00 CA 00 02 E4 9F 0B 03 04 00 FF 00 01 A1 C3
2025-09-27 09:11:38,0B 03 00 3F 00 01 B4 AC 0B 03 02 00 15 E1 8A
2025-09-27 09:11:39,0B 03 01 5E 00 01 E4 8E 0B 03 02 00 00 20 45
2025-09-27 09:11:39,0B 03 01 58 00 01 04 8F 0B 03 02 00 00 20 45
2025-09-27 09:11:39,0B 06 01 91 01 2C D9 3C 0B 06 01 91 01 2C D9 3C
2025-09-27 09:11:40,0B 06 01 96 00 64 69 5B 0B 86 03 22 63
2025-09-27 09:11:40,0B 06 01 97 00 78 39 52 0B 06 01 97 00 78 39 52
2025-09-27 09:11:40,0B 06 00 2C 00 00 48 A9 0B 06 00 2C 00 00 48 A9
2025-09-27 09:11:41,0B 03 00 01 00 01 D5 60 0B 03 02 00 A0 20 3D
2025-09-27 09:11:41,0B 03 00 03 00 03 F5 61 0B 03 06 00 9D 00 9C 00 A1 B3 9F
2025-09-27 09:11:41,0B 03 00 65 00 02 D4 BE 0B 03 04 00 00 00 00 50 33
2025-09-27 09:11:42,0B 03 00 CA 00 02 E4 9F 0B 03 04 00 FF 00 01 A1 C3
2025-09-27 09:11:42,0B 03 00 3F 00 01 B4 AC 0B 03 02 00 15 E1 8A
2025-09-27 09:11:42,0B 03 01 5E 00 01 E4 8E 0B 03 02 00 00 20 45
2025-09-27 09:11:43,0B 03 01 58 00 01 04 8F 0B 03 02 00 00 20 45
2025-09-27 09:11:43,0B 06 01 91 01 2C D9 3C 0B 06 01 91 01 2C D9 3C
2025-09-27 09:11:43,0B 06 01 96 00 64 69 5B 0B 86 03 22 63
2025-09-27 09:11:44,0B 06 01 97 00 78 39 52 0B 06 01 97 00 78 39 52
2025-09-27 09:11:44,0B 06 00 2C 00 00 48 A9 0B 06 00 2C 00 00 48 A9
2025-09-27 09:11:44,0B 03 00 01 00 01 D5 60 0B 03 02 00 A0 20 3D
2025-09-27 09:11:45,0B 03 00 03 00 03 F5 61 0B 03 06 00 9D 00 9C 00 A1 B3 9F
2025-09-27 09:11:45,0B 03 00 65 00 02 D4 BE 0B 03 04 00 00 00 00 50 33
2025-09-27 09:11:45,0B 03 00 CA 00 02 E4 9F 0B 03 04 00 FF 00 01 A1 C3
2025-09-27 09:11:46,0B 03 00 3F 00 01 B4 AC 0B 03 02 00 15 E1 8A
2025-09-27 09:11:46,0B 03 01 5E 00 01 E4 8E 0B 03 02 00 00 20 45
2025-09-27 09:11:46,0B 03 01 58 00 01 04 8F 0B 03 02 00 00 20 45
2025-09-27 09:11:47,0B 06 01 91 01 2C D9 3C 0B 06 01 91 01 2C D9 3C
2025-09-27 09:11:47,0B 06 01 96 00 64 69 5B 0B 86 03 22 63
2025-09-27 09:11:47,0B 06 01 97 00 78 39 52 0B 06 01 97 00 78 39 52
2025-09-27 09:11:48,0B 06 00 2C 00 00 48 A9 0B 06 00 2C 00 00 48 A9
2025-09-27 09:11:48,0B 03 00 01 00 01 D5 60 0B 03 02 00 A0 20 3D
2025-09-27 09:11:48,0B 03 00 03 00 03 F5 61 0B 03 06 00 9D 00 9C 00 A1 B3 9F
2025-09-27 09:11:49,0B 03 00 65 00 02 D4 BE 0B 03 04 00 00 00 00 50 33
2025-09-27 09:11:49,0B 03 00 CA 00 02 E4 9F 0B 03 04 00 FF 00 01 A1 C3
2025-09-27 09:11:49,0B 03 00 3F 00 01 B4 AC 0B 03 02 00 15 E1 8A
2025-09-27 09:11:50,0B 03 01 5E 00 01 E4 8E 0B 03 02 00 00 20 45
2025-09-27 09:11:50,0B 03 01 58 00 01 04 8F 0B 03 02 00 00 20 45
2025-09-27 09:11:50,0B 06 01 91 01 2C D9 3C 0B 06 01 91 01 2C D9 3C
2025-09-27 09:11:51,0B 06 01 96 00 64 69 5B 0B 86 03 22 63
2025-09-27 09:11:51,0B 06 01 97 00 78 39 52 0B 06 01 97 00 78 39 52
2025-09-27 09:11:52,0B 06 00 2C 00 00 48 A9 0B 06 00 2C 00 00 48 A9
2025-09-27 09:11:52,0B 03 00 01 00 01 D5 60 0B 03 02 00 A0 20 3D
2025-09-27 09:11:52,0B 03 00 03 00 03 F5 61 0B 03 06 00 9D 00 9C 00 A1 B3 9F
2025-09-27 09:11:52,0B 03 00 65 00 02 D4 BE 0B 03 04 00 00 00 00 50 33
2025-09-27 09:11:53,0B 03 00 CA 00 02 E4 9F 0B 03 04 00 FF 00 01 A1 C3
2025-09-27 09:11:53,0B 03 00 3F 00 01 B4 AC 0B 03 02 00 15 E1 8A
2025-09-27 09:11:53,0B 03 01 5E 00 01 E4 8E 0B 03 02 00 00 20 45
2025-09-27 09:11:54,0B 03 01 58 00 01 04 8F 0B 03 02 00 00 20 45
2025-09-27 09:11:54,0B 06 01 91 01 2C D9 3C 0B 06 01 91 01 2C D9 3C
2025-09-27 09:11:54,0B 06 01 96 00 64 69 5B 0B 86 03 22 63
2025-09-27 09:11:55,0B 06 01 97 00 78 39 52 0B 06 01 97 00 78 39 52
2025-09-27 09:11:55,0B 06 00 2C 00 00 48 A9 0B 06 00 2C 00 00 48 A9
2025-09-27 09:11:56,0B 03 00 01 00 01 D5 60 0B 03 02 00 A0 20 3D
2025-09-27 09:11:56,0B 03 00 03 00 03 F5 61 0B 03 06 00 9D 00 9C 00 A1 B3 9F
2025-09-27 09:11:56,0B 03 00 65 00 02 D4 BE 0B 03 04 00 00 00 00 50 33
2025-09-27 09:11:57,0B 03 00 CA 00 02 E4 9F 0B 03 04 00 FF 00 01 A1 C3
2025-09-27 09:11:57,0B 03 00 3F 00 01 B4 AC 0B 03 02 00 15 E1 8A
2025-09-27 09:11:57,0B 03 01 5E 00 01 E4 8E 0B 03 02 00 00 20 45
2025-09-27 09:11:57,0B 03 01 58 00 01 04 8F 0B 03 02 00 00 20 45
2025-09-27 09:11:58,0B 06 01 91 01 2C D9 3C 0B 06 01 91 01 2C D9 3C
2025-09-27 09:11:58,0B 06 01 96 00 64 69 5B 0B 86 03 22 63
2025-09-27 09:11:59,0B 06 01 97 00 78 39 52 0B 06 01 97 00 78 39 52
2025-09-27 09:11:59,0B 06 00 29 00 02 D9 69 0B 06 00 29 00 02 D9 69
2025-09-27 09:11:59,0B 10 01 FA 00 02 04 00 02 00 0B B0 DB 0B 10 01 FA 00 02 60 AF
2025-09-27 09:12:00,0B 06 02 09 00 00 58 DA 0B 06 02 09 00 00 58 DA
2025-09-27 09:12:00,0B 06 02 0F 00 78 B8 F9 0B 06 02 0F 00 78 B8 F9
2025-09-27 09:12:00,0B 06 02 3D 00 01 D8 D4 0B 06 02 3D 00 01 D8 D4
2025-09-27 09:12:01,0B 10 02 45 00 03 06 FF FF FE D4 01 2C 96 70 0B 10 02 45 00 03 90 CF
2025-09-27 09:12:01,0B 10 02 4A 00 03 06 FF FF 00 64 01 CC 97 C7 0B 10 02 4A 00 03 A0 CC
2025-09-27 09:12:01,0B 06 02 BF 00 01 78 FC 0B 06 02 BF 00 01 78 FC
2025-09-27 09:12:02,0B 10 02 CF 00 02 04 00 01 00 32 57 12 0B 10 02 CF 00 02 70 E5
2025-09-27 09:12:02,0B 10 02 F9 00 04 08 00 01 00 0B 00 00 00 03 91 22
2025-09-27 09:12:02,0B 10 02 F9 00 04 10 E9
2025-09-27 09:12:02,0B 06 03 27 00 00 39 2F 0B 06 03 27 00 00 39 2F
2025-09-27 09:12:03,0B 06 03 29 00 01 99 2C 0B 06 03 29 00 01 99 2C
2025-09-27 09:12:03,0B 06 03 2B 00 08 F8 EA 0B 06 03 2B 00 08 F8 EA
2025-09-27 09:12:03,0B 06 00 2C 00 00 48 A9 0B 06 00 2C 00 00 48 A9
2025-09-27 09:12:04,0B 03 00 01 00 01 D5 60 0B 03 02 00 A0 20 3D
2025-09-27 09:12:04,0B 03 00 03 00 03 F5 61 0B 03 06 00 9D 00 9C 00 A1 B3 9F
2025-09-27 09:12:04,0B 03 00 65 00 02 D4 BE 0B 03 04 00 00 00 00 50 33
2025-09-27 09:12:05,0B 03 00 CA 00 02 E4 9F 0B 03 04 00 FF 00 01 A1 C3
2025-09-27 09:12:05,0B 03 00 3F 00 01 B4 AC 0B 03 02 00 15 E1 8A
2025-09-27 09:12:05,0B 03 01 5E 00 01 E4 8E 0B 03 02 00 00 20 45
2025-09-27 09:12:06,0B 03 01 58 00 01 04 8F 0B 03 02 00 00 20 45
2025-09-27 09:12:06,0B 06 01 91 01 2C D9 3C 0B 06 01 91 01 2C D9 3C
2025-09-27 09:12:06,0B 06 01 96 00 64 69 5B 0B 86 03 22 63
2025-09-27 09:12:07,0B 06 01 97 00 78 39 52 0B 06 01 97 00 78 39 52
2025-09-27 09:12:07,0B 06 00 2C 00 00 48 A9 0B 06 00 2C 00 00 48 A9
2025-09-27 09:12:07,0B 03 00 01 00 01 D5 60 0B 03 02 00 A0 20 3D
2025-09-27 09:12:08,0B 03 00 03 00 03 F5 61 0B 03 06 00 9D 00 9C 00 A1 B3 9F
2025-09-27 09:12:08,0B 03 00 65 00 02 D4 BE 0B 03 04 00 00 00 00 50 33
2025-09-27 09:12:08,0B 03 00 CA 00 02 E4 9F 0B 03 04 00 FF 00 01 A1 C3
2025-09-27 09:12:09,0B 03 00 3F 00 01 B4 AC 0B 03 02 00 15 E1 8A
2025-09-27 09:12:09,0B 03 01 5E 00 01 E4 8E 0B 03 02 00 00 20 45
2025-09-27 09:12:09,0B 03 01 58 00 01 04 8F 0B 03 02 00 00 20 45
2025-09-27 09:12:10,0B 06 01 91 01 2C D9 3C 0B 06 01 91 01 2C D9 3C
2025-09-27 09:12:10,0B 06 01 96 00 64 69 5B 0B 86 03 22 63
2025-09-27 09:12:10,0B 06 01 97 00 78 39 52 0B 06 01 97 00 78 39 52
2025-09-27 09:12:11,0B 06 00 2C 00 00 48 A9 0B 06 00 2C 00 00 48 A9
2025-09-27 09:12:11,0B 03 00 01 00 01 D5 60 0B 03 02 00 A0 20 3D
2025-09-27 09:12:11,0B 03 00 03 00 03 F5 61 0B 03 06 00 9D 00 9C 00 A1 B3 9F
2025-09-27 09:12:12,0B 03 00 65 00 02 D4 BE 0B 03 04 00 00 00 00 50 33
2025-09-27 09:12:12,0B 03 00 CA 00 02 E4 9F 0B 03 04 00 FF 00 01 A1 C3
2025-09-27 09:12:12,0B 03 00 3F 00 01 B4 AC 0B 03 02 00 15 E1 8A
2025-09-27 09:12:13,0B 03 01 5E 00 01 E4 8E 0B 03 02 00 00 20 45
2025-09-27 09:12:13,0B 03 01 58 00 01 04 8F 0B 03 02 00 00 20 45
2025-09-27 09:12:13,0B 06 01 91 01 2C D9 3C 0B 06 01 91 01 2C D9 3C
2025-09-27 09:12:14,0B 06 01 96 00 64 69 5B 0B 86 03 22 63
2025-09-27 09:12:14,0B 06 01 97 00 78 39 52 0B 06 01 97 00 78 39 52
2025-09-27 09:12:15,0B 06 00 2C 00 00 48 A9 0B 06 00 2C 00 00 48 A9
2025-09-27 09:12:15,0B 03 00 01 00 01 D5 60 0B 03 02 00 A0 20 3D
2025-09-27 09:12:15,0B 03 00 03 00 03 F5 61 0B 03 06 00 9D 00 9C 00 A1 B3 9F
2025-09-27 09:12:15,0B 03 00 65 00 02 D4 BE 0B 03 04 00 00 00 00 50 33
2025-09-27 09:12:16,0B 03 00 CA 00 02 E4 9F 0B 03 04 00 FF 00 01 A1 C3
2025-09-27 09:12:16,0B 03 00 3F 00 01 B4 AC 0B 03 02 00 15 E1 8A
2025-09-27 09:12:16,0B 03 01 5E 00 01 E4 8E 0B 03 02 00 00 20 45
2025-09-27 09:12:17,0B 03 01 58 00 01 04 8F 0B 03 02 00 00 20 45
2025-09-27 09:12:17,0B 06 01 91 01 2C D9 3C 0B 06 01 91 01 2C D9 3C
2025-09-27 09:12:18,0B 06 01 96 00 64 69 5B 0B 86 03 22 63
2025-09-27 09:12:18,0B 06 01 97 00 78 39 52 0B 06 01 97 00 78 39 52
2025-09-27 09:12:18,0B 06 00 2C 00 00 48 A9 0B 06 00 2C 00 00 48 A9
2025-09-27 09:12:19,0B 03 00 01 00 01 D5 60 0B 03 02 00 A0 20 3D
2025-09-27 09:12:19,0B 03 00 03 00 03 F5 61 0B 03 06 00 9D 00 9C 00 A1 B3 9F
2025-09-27 09:12:19,0B 03 00 65 00 02 D4 BE 0B 03 04 00 00 00 00 50 33
2025-09-27 09:12:19,0B 03 00 CA 00 02 E4 9F 0B 03 04 00 FF 00 01 A1 C3
2025-09-27 09:12:20,0B 03 00 3F 00 01 B4 AC 0B 03 02 00 15 E1 8A
2025-09-27 09:12:20,0B 03 01 5E 00 01 E4 8E 0B 03 02 00 00 20 45
2025-09-27 09:12:21,0B 03 01 58 00 01 04 8F 0B 03 02 00 00 20 45
2025-09-27 09:12:21,0B 06 01 91 01 2C D9 3C 0B 06 01 91 01 2C D9 3C
2025-09-27 09:12:21,0B 06 01 96 00 64 69 5B 0B 86 03 22 63
2025-09-27 09:12:22,0B 06 01 97 00 78 39 52 0B 06 01 97 00 78 39 52
2025-09-27 09:12:22,0B 06 00 2C 00 00 48 A9 0B 06 00 2C 00 00 48 A9
2025-09-27 09:12:22,0B 03 00 01 00 01 D5 60 0B 03 02 00 A0 20 3D
2025-09-27 09:12:23,0B 03 00 03 00 03 F5 61 0B 03 06 00 9D 00 9C 00 A1 B3 9F
2025-09-27 09:12:23,0B 03 00 65 00 02 D4 BE 0B 03 04 00 00 00 00 50 33
2025-09-27 09:12:23,0B 03 00 CA 00 02 E4 9F 0B 03 04 00 FF 00 01 A1 C3
2025-09-27 09:12:24,0B 03 00 3F 00 01 B4 AC 0B 03 02 00 15 E1 8A
2025-09-27 09:12:24,0B 03 01 5E 00 01 E4 8E 0B 03 02 00 00 20 45
2025-09-27 09:12:24,0B 03 01 58 00 01 04 8F 0B 03 02 00 00 20 45
2025-09-27 09:12:25,0B 06 01 91 01 2C D9 3C 0B 06 01 91 01 2C D9 3C
2025-09-27 09:12:25,0B 06 01 96 00 64 69 5B 0B 86 03 22 63
2025-09-27 09:12:25,0B 06 01 97 00 78 39 52 0B 06 01 97 00 78 39 52
2025-09-27 09:12:26,0B 06 00 2C 00 00 48 A9 0B 06 00 2C 00 00 48 A9
2025-09-27 09:12:26,0B 03 00 01 00 01 D5 60 0B 03 02 00 A0 20 3D
2025-09-27 09:12:26,0B 03 00 03 00 03 F5 61 0B 03 06 00 9D 00 9C 00 A1 B3 9F
2025-09-27 09:12:27,0B 03 00 65 00 02 D4 BE 0B 03 04 00 00 00 00 50 33
2025-09-27 09:12:27,0B 03 00 CA 00 02 E4 9F 0B 03 04 00 FF 00 01 A1 C3
2025-09-27 09:12:27,0B 03 00 3F 00 01 B4 AC 0B 03 02 00 15 E1 8A
2025-09-27 09:12:28,0B 03 01 5E 00 01 E4 8E 0B 03 02 00 00 20 45
2025-09-27 09:12:28,0B 03 01 58 00 01 04 8F 0B 03 02 00 00 20 45
2025-09-27 09:12:28,0B 06 01 91 01 2C D9 3C 0B 06 01 91 01 2C D9 3C
2025-09-27 09:12:29,0B 06 01 96 00 64 69 5B 0B 86 03 22 63
2025-09-27 09:12:29,0B 06 01 97 00 78 39 52 0B 06 01 97 00 78 39 52
2025-09-27 09:12:29,0B 06 00 2C 00 00 48 A9 0B 06 00 2C 00 00 48 A9
2025-09-27 09:12:30,0B 03 00 01 00 01 D5 60 0B 03 02 00 A0 20 3D
2025-09-27 09:12:30,0B 03 00 03 00 03 F5 61 0B 03 06 00 9D 00 9C 00 A1 B3 9F
2025-09-27 09:12:30,0B 03 00 65 00 02 D4 BE 0B 03 04 00 00 00 00 50 33
2025-09-27 09:12:31,0B 03 00 CA 00 02 E4 9F 0B 03 04 00 FF 00 01 A1 C3
2025-09-27 09:12:31,0B 03 00 3F 00 01 B4 AC 0B 03 02 00 15 E1 8A
2025-09-27 09:12:31,0B 03 01 5E 00 01 E4 8E 0B 03 02 00 00 20 45
2025-09-27 09:12:32,0B 03 01 58 00 01 04 8F 0B 03 02 00 00 20 45
2025-09-27 09:12:32,0B 06 01 91 01 2C D9 3C 0B 06 01 91 01 2C D9 3C
2025-09-27 09:12:32,0B 06 01 96 00 64 69 5B 0B 86 03 22 63
2025-09-27 09:12:33,0B 06 01 97 00 78 39 52 0B 06 01 97 00 78 39 52
2025-09-27 09:12:33,0B 06 00 2C 00 00 48 A9 0B 06 00 2C 00 00 48 A9
2025-09-27 09:12:33,0B 03 00 01 00 01 D5 60 0B 03 02 00 A0 20 3D
2025-09-27 09:12:34,0B 03 00 03 00 03 F5 61 0B 03 06 00 9D 00 9C 00 A1 B3 9F
2025-09-27 09:12:34,0B 03 00 65 00 02 D4 BE 0B 03 04 00 00 00 00 50 33
2025-09-27 09:12:34,0B 03 00 CA 00 02 E4 9F 0B 03 04 00 FF 00 01 A1 C3
2025-09-27 09:12:35,0B 03 00 3F 00 01 B4 AC 0B 03 02 00 15 E1 8A
2025-09-27 09:12:35,0B 03 01 5E 00 01 E4 8E 0B 03 02 00 00 20 45
2025-09-27 09:12:35,0B 03 01 58 00 01 04 8F 0B 03 02 00 00 20 45
2025-09-27 09:12:36,0B 06 01 91 01 2C D9 3C 0B 06 01 91 01 2C D9 3C
2025-09-27 09:12:36,0B 06 01 96 00 64 69 5B 0B 86 03 22 63
2025-09-27 09:12:36,0B 06 01 97 00 78 39 52 0B 06 01 97 00 78 39 52
2025-09-27 09:12:37,0B 06 00 2C 00 00 48 A9 0B 06 00 2C 00 00 48 A9
2025-09-27 09:12:37,0B 03 00 01 00 01 D5 60 0B 03 02 00 A0 20 3D
2025-09-27 09:12:38,0B 03 00 03 00 03 F5 61 0B 03 06 00 9D 00 9C 00 A1 B3 9F
2025-09-27 09:12:38,0B 03 00 65 00 02 D4 BE 0B 03 04 00 00 00 00 50 33
2025-09-27 09:12:38,0B 03 00 CA 00 02 E4 9F 0B 03 04 00 FF 00 01 A1 C3
2025-09-27 09:12:38,0B 03 00 3F 00 01 B4 AC 0B 03 02 00 15 E1 8A
2025-09-27 09:12:39,0B 03 01 5E 00 01 E4 8E 0B 03 02 00 00 20 45
2025-09-27 09:12:39,0B 03 01 58 00 01 04 8F 0B 03 02 00 00 20 45
2025-09-27 09:12:39,0B 06 01 91 01 2C D9 3C 0B 06 01 91 01 2C D9 3C
2025-09-27 09:12:40,0B 06 01 96 00 64 69 5B 0B 86 03 22 63
2025-09-27 09:12:40,0B 06 01 97 00 78 39 52 0B 06 01 97 00 78 39 52
2025-09-27 09:12:41,0B 06 00 2C 00 00 48 A9 0B 06 00 2C 00 00 48 A9
2025-09-27 09:12:41,0B 03 00 01 00 01 D5 60 0B 03 02 00 A0 20 3D
2025-09-27 09:12:41,0B 03 00 03 00 03 F5 61 0B 03 06 00 9D 00 9C 00 A1 B3 9F
2025-09-27 09:12:41,0B 03 00 65 00 02 D4 BE 0B 03 04 00 00 00 00 50 33
2025-09-27 09:12:42,0B 03 00 CA 00 02 E4 9F 0B 03 04 00 FF 00 01 A1 C3
2025-09-27 09:12:42,0B 03 00 3F 00 01 B4 AC 0B 03 02 00 15 E1 8A
2025-09-27 09:12:43,0B 03 01 5E 00 01 E4 8E 0B 03 02 00 00 20 45
2025-09-27 09:12:43,0B 03 01 58 00 01 04 8F 0B 03 02 00 00 20 45
2025-09-27 09:12:43,0B 06 01 91 01 2C D9 3C 0B 06 01 91 01 2C D9 3C
2025-09-27 09:12:43,0B 06 01 96 00 64 69 5B 0B 86 03 22 63
2025-09-27 09:12:44,0B 06 01 97 00 78 39 52 0B 06 01 97 00 78 39 52
2025-09-27 09:12:44,0B 06 00 2C 00 00 48 A9 0B 06 00 2C 00 00 48 A9
2025-09-27 09:12:45,0B 03 00 01 00 01 D5 60 0B 03 02 00 A0 20 3D
2025-09-27 09:12:45,0B 03 00 03 00 03 F5 61 0B 03 06 00 9D 00 9C 00 A1 B3 9F
2025-09-27 09:12:45,0B 03 00 65 00 02 D4 BE 0B 03 04 00 00 00 00 50 33
2025-09-27 09:12:46,0B 03 00 CA 00 02 E4 9F 0B 03 04 00 FF 00 01 A1 C3
2025-09-27 09:12:46,0B 03 00 3F 00 01 B4 AC 0B 03 02 00 15 E1 8A
2025-09-27 09:12:46,0B 03 01 5E 00 01 E4 8E 0B 03 02 00 00 20 45
2025-09-27 09:12:47,0B 03 01 58 00 01 04 8F 0B 03 02 00 00 20 45
2025-09-27 09:12:47,0B 06 01 91 01 2C D9 3C 0B 06 01 91 01 2C D9 3C
2025-09-27 09:12:47,0B 06 01 96 00 64 69 5B 0B 86 03 22 63
2025-09-27 09:12:47,0B 06 01 97 00 78 39 52 0B 06 01 97 00 78 39 52
2025-09-27 09:12:48,0B 06 00 2C 00 00 48 A9 0B 06 00 2C 00 00 48 A9
2025-09-27 09:12:48,0B 03 00 01 00 01 D5 60 0B 03 02 00 A0 20 3D
2025-09-27 09:12:49,0B 03 00 03 00 03 F5 61 0B 03 06 00 9D 00 9C 00 A1 B3 9F
2025-09-27 09:12:49,0B 03 00 65 00 02 D4 BE 0B 03 04 00 00 00 00 50 33
2025-09-27 09:12:49,0B 03 00 CA 00 02 E4 9F 0B 03 04 00 FF 00 01 A1 C3
2025-09-27 09:12:50,0B 03 00 3F 00 01 B4 AC 0B 03 02 00 15 E1 8A
2025-09-27 09:12:50,0B 03 01 5E 00 01 E4 8E 0B 03 02 00 00 20 45
2025-09-27 09:12:50,0B 03 01 58 00 01 04 8F 0B 03 02 00 00 20 45
2025-09-27 09:12:51,0B 06 01 91 01 2C D9 3C 0B 06 01 91 01 2C D9 3C
2025-09-27 09:12:51,0B 06 01 96 00 64 69 5B 0B 86 03 22 63
2025-09-27 09:12:51,0B 06 01 97 00 78 39 52 0B 06 01 97 00 78 39 52
2025-09-27 09:12:52,0B 06 00 2C 00 00 48 A9 0B 06 00 2C 00 00 48 A9
2025-09-27 09:12:52,0B 03 00 01 00 01 D5 60 0B 03 02 00 A0 20 3D
2025-09-27 09:12:52,0B 03 00 03 00 03 F5 61 0B 03 06 00 9D 00 9C 00 A1 B3 9F
2025-09-27 09:12:53,0B 03 00 65 00 02 D4 BE 0B 03 04 00 00 00 00 50 33
2025-09-27 09:12:53,0B 03 00 CA 00 02 E4 9F 0B 03 04 00 FF 00 01 A1 C3
2025-09-27 09:12:53,0B 03 00 3F 00 01 B4 AC 0B 03 02 00 15 E1 8A
2025-09-27 09:12:54,0B 03 01 5E 00 01 E4 8E 0B 03 02 00 00 20 45
2025-09-27 09:12:54,0B 03 01 58 00 01 04 8F 0B 03 02 00 00 20 45
2025-09-27 09:12:54,0B 06 01 91 01 2C D9 3C 0B 06 01 91 01 2C D9 3C
2025-09-27 09:12:55,0B 06 01 96 00 64 69 5B 0B 86 03 22 63
2025-09-27 09:12:55,0B 06 01 97 00 78 39 52 0B 06 01 97 00 78 39 52
2025-09-27 09:12:55,0B 06 00 2C 00 00 48 A9 0B 06 00 2C 00 00 48 A9
2025-09-27 09:12:56,0B 03 00 01 00 01 D5 60 0B 03 02 00 A0 20 3D
2025-09-27 09:12:56,0B 03 00 03 00 03 F5 61 0B 03 06 00 9D 00 9C 00 A1 B3 9F
2025-09-27 09:12:56,0B 03 00 65 00 02 D4 BE 0B 03 04 00 00 00 00 50 33
2025-09-27 09:12:57,0B 03 00 CA 00 02 E4 9F 0B 03 04 00 FF 00 01 A1 C3
2025-09-27 09:12:57,0B 03 00 3F 00 01 B4 AC 0B 03 02 00 15 E1 8A
2025-09-27 09:12:57,0B 03 01 5E 00 01 E4 8E 0B 03 02 00 00 20 45
2025-09-27 09:12:58,0B 03 01 58 00 01 04 8F 0B 03 02 00 00 20 45
2025-09-27 09:12:58,0B 06 01 91 01 2C D9 3C 0B 06 01 91 01 2C D9 3C
2025-09-27 09:12:58,0B 06 01 96 00 64 69 5B 0B 86 03 22 63
2025-09-27 09:12:59,0B 06 01 97 00 78 39 52 0B 06 01 97 00 78 39 52
2025-09-27 09:12:59,0B 06 00 29 00 02 D9 69 0B 06 00 29 00 02 D9 69
2025-09-27 09:12:59,0B 10 01 FA 00 02 04 00 02 00 0B B0 DB 0B 10 01 FA 00 02 60 AF
2025-09-27 09:13:00,0B 06 02 09 00 00 58 DA 0B 06 02 09 00 00 58 DA
2025-09-27 09:13:00,0B 06 02 0F 00 78 B8 F9 0B 06 02 0F 00 78 B8 F9
2025-09-27 09:13:00,0B 06 02 3D 00 01 D8 D4 0B 06 02 3D 00 01 D8 D4
2025-09-27 09:13:01,0B 10 02 45 00 03 06 FF FF FE D4 01 2C 96 70 0B 10 02 45 00 03 90 CF
2025-09-27 09:13:01,0B 10 02 4A 00 03 06 FF FF 00 64 01 CC 97 C7 0B 10 02 4A 00 03 A0 CC
2025-09-27 09:13:01,0B 06 02 BF 00 01 78 FC 0B 06 02 BF 00 01 78 FC
2025-09-27 09:13:02,0B 10 02 CF 00 02 04 00 01 00 32 57 12 0B 10 02 CF 00 02 70 E5
2025-09-27 09:13:02,0B 10 02 F9 00 04 08 00 01 00 0B 00 00 00 03 91 22 0B 10 02 F9 00 04 10 E9
2025-09-27 09:13:02,0B 06 03 27 00 00 39 2F 0B 06 03 27 00 00 39 2F
2025-09-27 09:13:03,0B 06 03 29 00 01 99 2C 0B 06 03 29 00 01 99 2C
2025-09-27 09:13:03,0B 06 03 2B 00 08 F8 EA 0B 06 03 2B 00 08 F8 EA
2025-09-27 09:13:03,0B 06 00 2C 00 00 48 A9 0B 06 00 2C 00 00 48 A9
2025-09-27 09:13:04,0B 03 00 01 00 01 D5 60 0B 03 02 00 A0 20 3D
2025-09-27 09:13:04,0B 03 00 03 00 03 F5 61 0B 03 06 00 9D 00 9C 00 A1 B3 9F
2025-09-27 09:13:04,0B 03 00 65 00 02 D4 BE 0B 03 04 00 01 00 00 01 F3
2025-09-27 09:13:05,0B 03 00 CA 00 02 E4 9F 0B 03 04 00 FF 00 01 A1 C3
2025-09-27 09:13:05,0B 03 00 3F 00 01 B4 AC 0B 03 02 00 15 E1 8A
2025-09-27 09:13:05,0B 03 01 5E 00 01 E4 8E 0B 03 02 00 00 20 45
2025-09-27 09:13:06,0B 03 01 58 00 01 04 8F 0B 03 02 00 00 20 45
2025-09-27 09:13:06,0B 06 01 91 01 5E 59 19 0B 06 01 91 01 5E 59 19
2025-09-27 09:13:06,0B 06 01 96 00 64 69 5B 0B 86 03 22 63
2025-09-27 09:13:07,0B 06 01 97 00 78 39 52 0B 06 01 97 00 78 39 52
2025-09-27 09:13:07,0B 06 00 2C 00 02 C9 68 0B 06 00 2C 00 02 C9 68
2025-09-27 09:13:08,0B 03 00 01 00 01 D5 60 0B 03 02 00 A0 20 3D
2025-09-27 09:13:08,0B 03 00 03 00 03 F5 61 0B 03 06 00 9D 00 9C 00 A1 B3 9F
2025-09-27 09:13:08,0B 03 00 65 00 02 D4 BE 0B 03 04 00 01 00 00 01 F3
2025-09-27 09:13:08,0B 03 00 CA 00 02 E4 9F 0B 03 04 00 FF 00 01 A1 C3
2025-09-27 09:13:09,0B 03 00 3F 00 01 B4 AC 0B 03 02 00 15 E1 8A
2025-09-27 09:13:09,0B 03 01 5E 00 01 E4 8E 0B 03 02 00 00 20 45
2025-09-27 09:13:09,0B 03 01 58 00 01 04 8F 0B 03 02 00 00 20 45
2025-09-27 09:13:10,0B 06 01 91 01 5E 59 19 0B 06 01 91 01 5E 59 19
2025-09-27 09:13:10,0B 06 01 96 00 64 69 5B 0B 86 03 22 63
2025-09-27 09:13:10,0B 06 01 97 00 78 39 52 0B 06 01 97 00 78 39 52
2025-09-27 09:13:11,0B 06 00 2C 00 02 C9 68 0B 06 00 2C 00 02 C9 68
2025-09-27 09:13:11,0B 03 00 01 00 01 D5 60 0B 03 02 00 A0 20 3D
2025-09-27 09:13:11,0B 03 00 03 00 03 F5 61 0B 03 06 00 9C 00 9C 00 A1 8E 5F
2025-09-27 09:13:12,0B 03 00 65 00 02 D4 BE 0B 03 04 00 01 00 00 01 F3
2025-09-27 09:13:12,0B 03 00 CA 00 02 E4 9F 0B 03 04 00 FF 00 01 A1 C3
2025-09-27 09:13:12,0B 03 00 3F 00 01 B4 AC 0B 03 02 00 15 E1 8A
2025-09-27 09:13:13,0B 03 01 5E 00 01 E4 8E 0B 03 02 00 00 20 45
2025-09-27 09:13:13,0B 03 01 58 00 01 04 8F 0B 03 02 00 00 20 45
2025-09-27 09:13:13,0B 06 01 91 01 5E 59 19 0B 06 01 91 01 5E 59 19
2025-09-27 09:13:14,0B 06 01 96 00 64 69 5B 0B 86 03 22 63
2025-09-27 09:13:14,0B 06 01 97 00 78 39 52 0B 06 01 97 00 78 39 52
2025-09-27 09:13:14,0B 06 00 2C 00 02 C9 68 0B 06 00 2C 00 02 C9 68
2025-09-27 09:13:15,0B 03 00 01 00 01 D5 60 0B 03 02 00 A0 20 3D
2025-09-27 09:13:15,0B 03 00 03 00 03 F5 61 0B 03 06 00 B9 00 9D 00 A1 92 58
2025-09-27 09:13:15,0B 03 00 65 00 02 D4 BE 0B 03 04 00 01 00 00 01 F3
2025-09-27 09:13:16,0B 03 00 CA 00 02 E4 9F 0B 03 04 00 FF 00 01 A1 C3
2025-09-27 09:13:16,0B 03 00 3F 00 01 B4 AC 0B 03 02 00 15 E1 8A
2025-09-27 09:13:16,0B 03 01 5E 00 01 E4 8E 0B 03 02 00 00 20 45
2025-09-27 09:13:17,0B 03 01 58 00 01 04 8F 0B 03 02 00 00 20 45
2025-09-27 09:13:17,0B 06 01 91 01 5E 59 19 0B 06 01 91 01 5E 59 19
2025-09-27 09:13:17,0B 06 01 96 00 64 69 5B 0B 86 03 22 63
2025-09-27 09:13:18,0B 06 01 97 00 78 39 52 0B 06 01 97 00 78 39 52
2025-09-27 09:13:18,0B 06 00 2C 00 02 C9 68 0B 06 00 2C 00 02 C9 68
2025-09-27 09:13:19,0B 03 00 01 00 01 D5 60 0B 03 02 00 A0 20 3D
2025-09-27 09:13:19,0B 03 00 03 00 03 F5 61 0B 03 06 00 E6 00 A8 00 A1 16 5B
2025-09-27 09:13:19,0B 03 00 65 00 02 D4 BE 0B 03 04 00 01 00 00 01 F3
2025-09-27 09:13:19,0B 03 00 CA 00 02 E4 9F 0B 03 04 00 FF 00 01 A1 C3
2025-09-27 09:13:20,0B 03 00 3F 00 01 B4 AC 0B 03 02 00 15 E1 8A
2025-09-27 09:13:20,0B 03 01 5E 00 01 E4 8E 0B 03 02 00 00 20 45
2025-09-27 09:13:20,0B 03 01 58 00 01 04 8F 0B 03 02 00 00 20 45
2025-09-27 09:13:21,0B 06 01 91 01 5E 59 19 0B 06 01 91 01 5E 59 19
2025-09-27 09:13:21,0B 06 01 96 00 64 69 5B 0B 86 03 22 63
2025-09-27 09:13:21,0B 06 01 97 00 78 39 52 0B 06 01 97 00 78 39 52
2025-09-27 09:13:22,0B 06 00 2C 00 02 C9 68 0B 06 00 2C 00 02 C9 68
2025-09-27 09:13:22,0B 03 00 01 00 01 D5 60 0B 03 02 00 A0 20 3D
2025-09-27 09:13:22,0B 03 00 03 00 03 F5 61 0B 03 06 00 FB 00 D2 00 A1 DB 80
2025-09-27 09:13:23,0B 03 00 65 00 02 D4 BE 0B 03 04 00 01 00 00 01 F3
2025-09-27 09:13:23,0B 03 00 CA 00 02 E4 9F 0B 03 04 00 FF 00 01 A1 C3
2025-09-27 09:13:23,0B 03 00 3F 00 01 B4 AC 0B 03 02 00 15 E1 8A
2025-09-27 09:13:24,0B 03 01 5E 00 01 E4 8E 0B 03 02 00 00 20 45
2025-09-27 09:13:24,0B 03 01 58 00 01 04 8F 0B 03 02 00 00 20 45
2025-09-27 09:13:24,0B 06 01 91 01 5E 59 19 0B 06 01 91 01 5E 59 19
2025-09-27 09:13:25,0B 06 01 96 00 64 69 5B 0B 86 03 22 63
2025-09-27 09:13:25,0B 06 01 97 00 78 39 52 0B 06 01 97 00 78 39 52
2025-09-27 09:13:26,0B 06 00 2C 00 02 C9 68 0B 06 00 2C 00 02 C9 68
2025-09-27 09:13:26,0B 03 00 01 00 01 D5 60 0B 03 02 00 A0 20 3D
2025-09-27 09:13:26,0B 03 00 03 00 03 F5 61 0B 03 06 01 02 00 EF 00 A1 D7 89
2025-09-27 09:13:26,0B 03 00 65 00 02 D4 BE 0B 03 04 00 01 00 00 01 F3
2025-09-27 09:13:27,0B 03 00 CA 00 02 E4 9F 0B 03 04 00 FF 00 01 A1 C3
2025-09-27 09:13:27,0B 03 00 3F 00 01 B4 AC 0B 03 02 00 15 E1 8A
2025-09-27 09:13:27,0B 03 01 5E 00 01 E4 8E 0B 03 02 00 00 20 45
2025-09-27 09:13:28,0B 03 01 58 00 01 04 8F 0B 03 02 00 00 20 45
2025-09-27 09:13:28,0B 06 01 91 01 5E 59 19 0B 06 01 91 01 5E 59 19
2025-09-27 09:13:29,0B 06 01 96 00 64 69 5B 0B 86 03 22 63
2025-09-27 09:13:29,0B 06 01 97 00 78 39 52 0B 06 01 97 00 78 39 52
2025-09-27 09:13:29,0B 06 00 2C 00 02 C9 68 0B 06 00 2C 00 02 C9 68
2025-09-27 09:13:30,0B 03 00 01 00 01 D5 60 0B 03 02 00 A0 20 3D
2025-09-27 09:13:30,0B 03 00 03 00 03 F5 61 0B 03 06 01 04 00 FC 00 A1 AE 4C
2025-09-27 09:13:30,0B 03 00 65 00 02 D4 BE 0B 03 04 00 01 00 00 01 F3
2025-09-27 09:13:30,0B 03 00 CA 00 02 E4 9F 0B 03 04 00 FF 00 01 A1 C3
2025-09-27 09:13:31,0B 03 00 3F 00 01 B4 AC 0B 03 02 00 16 A1 8B
2025-09-27 09:13:31,0B 03 01 5E 00 01 E4 8E 0B 03 02 00 00 20 45
2025-09-27 09:13:31,0B 03 01 58 00 01 04 8F 0B 03 02 00 00 20 45
2025-09-27 09:13:32,0B 06 01 91 01 5E 59 19 0B 06 01 91 01 5E 59 19
2025-09-27 09:13:32,0B 06 01 96 00 64 69 5B 0B 86 03 22 63
2025-09-27 09:13:33,0B 06 01 97 00 78 39 52 0B 06 01 97 00 78 39 52
2025-09-27 09:13:33,0B 06 00 2C 00 02 C9 68 0B 06 00 2C 00 02 C9 68
2025-09-27 09:13:33,0B 03 00 01 00 01 D5 60 0B 03 02 00 A0 20 3D
2025-09-27 09:13:34,0B 03 00 03 00 03 F5 61 0B 03 06 01 05 01 00 00 83 D2 59
2025-09-27 09:13:34,0B 03 00 65 00 02 D4 BE 0B 03 04 00 01 00 00 01 F3
2025-09-27 09:13:34,0B 03 00 CA 00 02 E4 9F 0B 03 04 00 FF 00 01 A1 C3
2025-09-27 09:13:35,0B 03 00 3F 00 01 B4 AC 0B 03 02 00 16 A1 8B
2025-09-27 09:13:35,0B 03 01 5E 00 01 E4 8E 0B 03 02 00 00 20 45
2025-09-27 09:13:35,0B 03 01 58 00 01 04 8F 0B 03 02 00 00 20 45
2025-09-27 09:13:35,0B 06 01 91 01 5E 59 19 0B 06 01 91 01 5E 59 19
2025-09-27 09:13:36,0B 06 01 96 00 64 69 5B 0B 86 03 22 63
2025-09-27 09:13:36,0B 06 01 97 00 78 39 52 0B 06 01 97 00 78 39 52
2025-09-27 09:13:37,0B 06 00 2C 00 02 C9 68 0B 06 00 2C 00 02 C9 68
2025-09-27 09:13:37,0B 03 00 01 00 01 D5 60 0B 03 02 00 A0 20 3D
2025-09-27 09:13:37,0B 03 00 03 00 03 F5 61 0B 03 06 01 05 01 02 00 83 73 99
2025-09-27 09:13:38,0B 03 00 65 00 02 D4 BE 0B 03 04 00 01 00 00 01 F3
2025-09-27 09:13:38,0B 03 00 CA 00 02 E4 9F 0B 03 04 00 FF 00 01 A1 C3
2025-09-27 09:13:38,0B 03 00 3F 00 01 B4 AC 0B 03 02 00 02 A1 84
2025-09-27 09:13:39,0B 03 01 5E 00 01 E4 8E 0B 03 02 00 00 20 45
2025-09-27 09:13:39,0B 03 01 58 00 01 04 8F 0B 03 02 00 00 20 45
2025-09-27 09:13:39,0B 06 01 91 01 5E 59 19 0B 06 01 91 01 5E 59 19
2025-09-27 09:13:40,0B 06 01 96 00 64 69 5B 0B 86 03 22 63
2025-09-27 09:13:40,0B 06 01 97 00 78 39 52 0B 06 01 97 00 78 39 52
2025-09-27 09:13:40,0B 06 00 2C 00 02 C9 68 0B 06 00 2C 00 02 C9 68
2025-09-27 09:13:41,0B 03 00 01 00 01 D5 60 0B 03 02 00 A0 20 3D
2025-09-27 09:13:41,0B 03 00 03 00 03 F5 61 0B 03 06 01 05 01 02 00 84 32 5B
2025-09-27 09:13:41,0B 03 00 65 00 02 D4 BE 0B 03 04 00 01 00 00 01 F3
2025-09-27 09:13:42,0B 03 00 CA 00 02 E4 9F 0B 03 04 00 FF 00 01 A1 C3
2025-09-27 09:13:42,0B 03 00 3F 00 01 B4 AC 0B 03 02 00 02 A1 84
2025-09-27 09:13:42,0B 03 01 5E 00 01 E4 8E 0B 03 02 00 00 20 45
2025-09-27 09:13:43,0B 03 01 58 00 01 04 8F 0B 03 02 00 00 20 45
2025-09-27 09:13:43,0B 06 01 91 01 5E 59 19 0B 06 01 91 01 5E 59 19
2025-09-27 09:13:43,0B 06 01 96 00 64 69 5B 0B 86 03 22 63
2025-09-27 09:13:44,0B 06 01 97 00 78 39 52 0B 06 01 97 00 78 39 52
2025-09-27 09:13:44,0B 06 00 2C 00 02 C9 68 0B 06 00 2C 00 02 C9 68
2025-09-27 09:13:44,0B 03 00 01 00 01 D5 60 0B 03 02 00 A0 20 3D
2025-09-27 09:13:45,0B 03 00 03 00 03 F5 61 0B 03 06 01 04 01 02 00 87 4F 9A
2025-09-27 09:13:45,0B 03 00 65 00 02 D4 BE 0B 03 04 00 01 00 00 01 F3
2025-09-27 09:13:45,0B 03 00 CA 00 02 E4 9F 0B 03 04 00 FF 00 01 A1 C3
2025-09-27 09:13:46,0B 03 00 3F 00 01 B4 AC 0B 03 02 00 02 A1 84
2025-09-27 09:13:46,0B 03 01 5E 00 01 E4 8E 0B 03 02 00 00 20 45
2025-09-27 09:13:46,0B 03 01 58 00 01 04 8F 0B 03 02 00 00 20 45
2025-09-27 09:13:47,0B 06 01 91 01 5E 59 19 0B 06 01 91 01 5E 59 19
2025-09-27 09:13:47,0B 06 01 96 00 64 69 5B 0B 86 03 22 63
2025-09-27 09:13:47,0B 06 01 97 00 78 39 52 0B 06 01 97 00 78 39 52
2025-09-27 09:13:48,0B 06 00 2C 00 02 C9 68 0B 06 00 2C 00 02 C9 68
2025-09-27 09:13:48,0B 03 00 01 00 01 D5 60 0B 03 02 00 A0 20 3D
2025-09-27 09:13:48,0B 03 00 03 00 03 F5 61 0B 03 06 01 03 01 02 00 89 7B 9E
2025-09-27 09:13:49,0B 03 00 65 00 02 D4 BE 0B 03 04 00 01 00 00 01 F3
2025-09-27 09:13:49,0B 03 00 CA 00 02 E4 9F 0B 03 04 00 FF 00 01 A1 C3
2025-09-27 09:13:49,0B 03 00 3F 00 01 B4 AC 0B 03 02 00 02 A1 84
2025-09-27 09:13:50,0B 03 01 5E 00 01 E4 8E 0B 03 02 00 00 20 45
2025-09-27 09:13:50,0B 03 01 58 00 01 04 8F 0B 03 02 00 00 20 45
2025-09-27 09:13:50,0B 06 01 91 01 5E 59 19 0B 06 01 91 01 5E 59 19
2025-09-27 09:13:51,0B 06 01 96 00 64 69 5B 0B 86 03 22 63
2025-09-27 09:13:51,0B 06 01 97 00 78 39 52 0B 06 01 97 00 78 39 52
2025-09-27 09:13:52,0B 06 00 2C 00 02 C9 68 0B 06 00 2C 00 02 C9 68
2025-09-27 09:13:52,0B 03 00 01 00 01 D5 60 0B 03 02 00 A0 20 3D
2025-09-27 09:13:52,0B 03 00 03 00 03 F5 61 0B 03 06 01 03 01 02 00 8E 3A 5C
2025-09-27 09:13:52,0B 03 00 65 00 02 D4 BE 0B 03 04 00 01 00 00 01 F3
2025-09-27 09:13:53,0B 03 00 CA 00 02 E4 9F 0B 03 04 00 FF 00 01 A1 C3
2025-09-27 09:13:53,0B 03 00 3F 00 01 B4 AC 0B 03 02 00 02 A1 84
2025-09-27 09:13:53,0B 03 01 5E 00 01 E4 8E 0B 03 02 00 00 20 45
2025-09-27 09:13:54,0B 03 01 58 00 01 04 8F 0B 03 02 00 00 20 45
2025-09-27 09:13:54,0B 06 01 91 01 5E 59 19 0B 06 01 91 01 5E 59 19
2025-09-27 09:13:55,0B 06 01 96 00 64 69 5B 0B 86 03 22 63
2025-09-27 09:13:55,0B 06 01 97 00 78 39 52 0B 06 01 97 00 78 39 52
2025-09-27 09:13:55,0B 06 00 2C 00 02 C9 68 0B 06 00 2C 00 02 C9 68
2025-09-27 09:13:56,0B 03 00 01 00 01 D5 60 0B 03 02 00 A0 20 3D
2025-09-27 09:13:56,0B 03 00 03 00 03 F5 61 0B 03 06 01 02 01 01 00 95 B7 97
2025-09-27 09:13:56,0B 03 00 65 00 02 D4 BE 0B 03 04 00 01 00 00 01 F3
2025-09-27 09:13:56,0B 03 00 CA 00 02 E4 9F 0B 03 04 00 FF 00 01 A1 C3
2025-09-27 09:13:57,0B 03 00 3F 00 01 B4 AC 0B 03 02 00 02 A1 84
2025-09-27 09:13:57,0B 03 01 5E 00 01 E4 8E 0B 03 02 00 00 20 45
2025-09-27 09:13:57,0B 03 01 58 00 01 04 8F 0B 03 02 00 00 20 45
2025-09-27 09:13:58,0B 06 01 91 01 5E 59 19 0B 06 01 91 01 5E 59 19
2025-09-27 09:13:58,0B 06 01 96 00 64 69 5B 0B 86 03 22 63
2025-09-27 09:13:58,0B 06 01 97 00 78 39 52 0B 06 01 97 00 78 39 52
2025-09-27 09:13:59,0B 06 00 2C 00 02 C9 68 0B 06 00 2C 00 02 C9 68
2025-09-27 09:13:59,0B 03 00 01 00 01 D5 60 0B 03 02 00 A0 20 3D
2025-09-27 09:14:00,0B 03 00 03 00 03 F5 61 0B 03 06 01 02 01 02 00 9D 46 51
2025-09-27 09:14:00,0B 03 00 65 00 02 D4 BE 0B 03 04 00 01 00 00 01 F3
2025-09-27 09:14:00,0B 03 00 CA 00 02 E4 9F 0B 03 04 00 FF 00 01 A1 C3
2025-09-27 09:14:01,0B 03 00 3F 00 01 B4 AC 0B 03 02 00 02 A1 84
2025-09-27 09:14:01,0B 03 01 5E 00 01 E4 8E 0B 03 02 00 00 20 45
2025-09-27 09:14:01,0B 03 01 58 00 01 04 8F 0B 03 02 00 00 20 45
2025-09-27 09:14:02,0B 06 01 91 01 5E 59 19 0B 06 01 91 01 5E 59 19
2025-09-27 09:14:02,0B 06 01 96 00 64 69 5B 0B 86 03 22 63
2025-09-27 09:14:02,0B 06 01 97 00 78 39 52 0B 06 01 97 00 78 39 52
2025-09-27 09:14:03,0B 06 00 29 00 02 D9 69 0B 06 00 29 00 02 D9 69
2025-09-27 09:14:03,0B 10 01 FA 00 02 04 00 02 00 0B B0 DB 0B 10 01 FA 00 02 60 AF
2025-09-27 09:14:03,0B 06 02 09 00 00 58 DA 0B 06 02 09 00 00 58 DA
2025-09-27 09:14:04,0B 06 02 0F 00 78 B8 F9 0B 06 02 0F 00 78 B8 F9
2025-09-27 09:14:04,0B 06 02 3D 00 01 D8 D4 0B 06 02 3D 00 01 D8 D4
2025-09-27 09:14:04,0B 10 02 45 00 03 06 FF FF FE D4 01 2C 96 70 0B 10 02 45 00 03 90 CF
2025-09-27 09:14:05,0B 10 02 4A 00 03 06 FF FF 00 64 01 CC 97 C7 0B 10 02 4A 00 03 A0 CC
2025-09-27 09:14:05,0B 06 02 BF 00 01 78 FC 0B 06 02 BF 00 01 78 FC
2025-09-27 09:14:05,0B 10 02 CF 00 02 04 00 01 00 32 57 12 0B 10 02 CF 00 02 70 E5
2025-09-27 09:14:06,0B 10 02 F9 00 04 08 00 01 00 0B 00 00 00 03 91 22 0B 10 02 F9 00 04 10 E9
2025-09-27 09:14:06,0B 06 03 27 00 00 39 2F 0B 06 03 27 00 00 39 2F
2025-09-27 09:14:06,0B 06 03 29 00 01 99 2C 0B 06 03 29 00 01 99 2C
2025-09-27 09:14:07,0B 06 03 2B 00 08 F8 EA 0B 06 03 2B 00 08 F8 EA
2025-09-27 09:14:07,0B 06 00 2C 00 02 C9 68 0B 06 00 2C 00 02 C9 68
2025-09-27 09:14:07,0B 03 00 01 00 01 D5 60 0B 03 02 00 A0 20 3D
2025-09-27 09:14:08,0B 03 00 03 00 03 F5 61 0B 03 06 01 01 01 0D 00 AD 32 46
2025-09-27 09:14:08,0B 03 00 65 00 02 D4 BE 0B 03 04 00 01 00 00 01 F3
2025-09-27 09:14:08,0B 03 00 CA 00 02 E4 9F 0B 03 04 00 FF 00 01 A1 C3
2025-09-27 09:14:09,0B 03 00 3F 00 01 B4 AC 0B 03 02 00 02 A1 84
2025-09-27 09:14:09,0B 03 01 5E 00 01 E4 8E 0B 03 02 00 00 20 45
2025-09-27 09:14:09,0B 03 01 58 00 01 04 8F 0B 03 02 00 00 20 45
2025-09-27 09:14:10,0B 06 01 91 01 5E 59 19 0B 06 01 91 01 5E 59 19
2025-09-27 09:14:10,0B 06 01 96 00 64 69 5B 0B 86 03 22 63
2025-09-27 09:14:10,0B 06 01 97 00 78 39 52 0B 06 01 97 00 78 39 52
2025-09-27 09:14:11,0B 06 00 2C 00 02 C9 68 0B 06 00 2C 00 02 C9 68
2025-09-27 09:14:11,0B 03 00 01 00 01 D5 60 0B 03 02 00 A0 20 3D
2025-09-27 09:14:11,0B 03 00 03 00 03 F5 61 0B 03 06 01 01 01 13 00 B4 93 8A
2025-09-27 09:14:12,0B 03 00 65 00 02 D4 BE 0B 03 04 00 01 00 00 01 F3
2025-09-27 09:14:12,0B 03 00 CA 00 02 E4 9F 0B 03 04 00 FF 00 01 A1 C3
2025-09-27 09:14:12,0B 03 00 3F 00 01 B4 AC 0B 03 02 00 02 A1 84
2025-09-27 09:14:13,0B 03 01 5E 00 01 E4 8E 0B 03 02 00 00 20 45
2025-09-27 09:14:13,0B 03 01 58 00 01 04 8F 0B 03 02 00 00 20 45
2025-09-27 09:14:13,0B 06 01 91 01 5E 59 19 0B 06 01 91 01 5E 59 19
2025-09-27 09:14:14,0B 06 01 96 00 64 69 5B 0B 86 03 22 63
2025-09-27 09:14:14,0B 06 01 97 00 78 39 52 0B 06 01 97 00 78 39 52
2025-09-27 09:14:14,0B 06 00 2C 00 02 C9 68 0B 06 00 2C 00 02 C9 68
2025-09-27 09:14:15,0B 03 00 01 00 01 D5 60 0B 03 02 00 A0 20 3D
2025-09-27 09:14:15,0B 03 00 03 00 03 F5 61 0B 03 06 01 00 01 16 00 BA 3F 8F
2025-09-27 09:14:15,0B 03 00 65 00 02 D4 BE 0B 03 04 00 01 00 00 01 F3
2025-09-27 09:14:16,0B 03 00 CA 00 02 E4 9F 0B 03 04 00 FF 00 01 A1 C3
2025-09-27 09:14:16,0B 03 00 3F 00 01 B4 AC 0B 03 02 00 02 A1 84
2025-09-27 09:14:16,0B 03 01 5E 00 01 E4 8E 0B 03 02 00 00 20 45
2025-09-27 09:14:17,0B 03 01 58 00 01 04 8F 0B 03 02 00 00 20 45
2025-09-27 09:14:17,0B 06 01 91 01 5E 59 19 0B 06 01 91 01 5E 59 19
2025-09-27 09:14:17,0B 06 01 96 00 64 69 5B 0B 86 03 22 63
2025-09-27 09:14:18,0B 06 01 97 00 78 39 52 0B 06 01 97 00 78 39 52
2025-09-27 09:14:18,0B 06 00 2C 00 02 C9 68 0B 06 00 2C 00 02 C9 68
2025-09-27 09:14:18,0B 03 00 01 00 01 D5 60 0B 03 02 00 A0 20 3D
2025-09-27 09:14:19,0B 03 00 03 00 03 F5 61 0B 03 06 01 00 01 17 00 BF AE 4C
2025-09-27 09:14:19,0B 03 00 65 00 02 D4 BE 0B 03 04 00 01 00 00 01 F3
2025-09-27 09:14:20,0B 03 00 CA 00 02 E4 9F 0B 03 04 00 FF 00 01 A1 C3
2025-09-27 09:14:20,0B 03 00 3F 00 01 B4 AC 0B 03 02 00 02 A1 84
2025-09-27 09:14:20,0B 03 01 5E 00 01 E4 8E 0B 03 02 00 00 20 45
2025-09-27 09:14:20,0B 03 01 58 00 01 04 8F 0B 03 02 00 00 20 45
2025-09-27 09:14:21,0B 06 01 91 01 5E 59 19 0B 06 01 91 01 5E 59 19
2025-09-27 09:14:21,0B 06 01 96 00 64 69 5B 0B 86 03 22 63
2025-09-27 09:14:21,0B 06 01 97 00 78 39 52 0B 06 01 97 00 78 39 52
2025-09-27 09:14:22,0B 06 00 2C 00 02 C9 68 0B 06 00 2C 00 02 C9 68
2025-09-27 09:14:22,0B 03 00 01 00 01 D5 60 0B 03 02 00 A0 20 3D
2025-09-27 09:14:23,0B 03 00 03 00 03 F5 61 0B 03 06 01 00 01 19 00 C2 0F AE
2025-09-27 09:14:23,0B 03 00 65 00 02 D4 BE 0B 03 04 00 01 00 00 01 F3
2025-09-27 09:14:23,0B 03 00 CA 00 02 E4 9F 0B 03 04 00 FF 00 01 A1 C3
2025-09-27 09:14:23,0B 03 00 3F 00 01 B4 AC 0B 03 02 00 02 A1 84
2025-09-27 09:14:24,0B 03 01 5E 00 01 E4 8E 0B 03 02 00 00 20 45
2025-09-27 09:14:24,0B 03 01 58 00 01 04 8F 0B 03 02 00 00 20 45
2025-09-27 09:14:25,0B 06 01 91 01 5E 59 19 0B 06 01 91 01 5E 59 19
2025-09-27 09:14:25,0B 06 01 96 00 64 69 5B 0B 86 03 22 63
2025-09-27 09:14:25,0B 06 01 97 00 78 39 52 0B 06 01 97 00 78 39 52
2025-09-27 09:14:26,0B 06 00 2C 00 02 C9 68 0B 06 00 2C 00 02 C9 68
2025-09-27 09:14:26,0B 03 00 01 00 01 D5 60 0B 03 02 00 A5 E0 3E
2025-09-27 09:14:26,0B 03 00 03 00 03 F5 61 0B 03 06 01 00 01 1C 00 C5 5E 6D
2025-09-27 09:14:27,0B 03 00 65 00 02 D4 BE 0B 03 04 00 01 00 00 01 F3
2025-09-27 09:14:27,0B 03 00 CA 00 02 E4 9F 0B 03 04 00 FF 00 01 A1 C3
2025-09-27 09:14:27,0B 03 00 3F 00 01 B4 AC 0B 03 02 00 02 A1 84
2025-09-27 09:14:28,0B 03 01 5E 00 01 E4 8E 0B 03 02 00 00 20 45
2025-09-27 09:14:28,0B 03 01 58 00 01 04 8F 0B 03 02 00 00 20 45
2025-09-27 09:14:28,0B 06 01 91 01 5E 59 19 0B 06 01 91 01 5E 59 19
2025-09-27 09:14:29,0B 06 01 96 00 64 69 5B 0B 86 03 22 63
2025-09-27 09:14:29,0B 06 01 97 00 78 39 52 0B 06 01 97 00 78 39 52
2025-09-27 09:14:29,0B 06 00 2C 00 02 C9 68 0B 06 00 2C 00 02 C9 68
2025-09-27 09:14:30,0B 03 00 01 00 01 D5 60 0B 03 02 00 A5 E0 3E
2025-09-27 09:14:30,0B 03 00 03 00 03 F5 61 0B 03 06 01 00 01 1A 00 C7 3F AD
2025-09-27 09:14:30,0B 03 00 65 00 02 D4 BE 0B 03 04 00 01 00 00 01 F3
2025-09-27 09:14:31,0B 03 00 CA 00 02 E4 9F 0B 03 04 00 FF 00 01 A1 C3
2025-09-27 09:14:31,0B 03 00 3F 00 01 B4 AC 0B 03 02 00 02 A1 84
2025-09-27 09:14:31,0B 03 01 5E 00 01 E4 8E 0B 03 02 00 00 20 45
2025-09-27 09:14:31,0B 03 01 58 00 01 04 8F 0B 03 02 00 00 20 45
2025-09-27 09:14:32,0B 06 01 91 01 5E 59 19 0B 06 01 91 01 5E 59 19
2025-09-27 09:14:32,0B 06 01 96 00 64 69 5B 0B 86 03 22 63
2025-09-27 09:14:32,0B 06 01 97 00 78 39 52 0B 06 01 97 00 78 39 52
2025-09-27 09:14:33,0B 06 00 2C 00 02 C9 68 0B 06 00 2C 00 02 C9 68
2025-09-27 09:14:33,0B 03 00 01 00 01 D5 60 0B 03 02 00 A5 E0 3E
2025-09-27 09:14:34,0B 03 00 03 00 03 F5 61 0B 03 06 01 00 01 18 00 C8 DE 69
2025-09-27 09:14:34,0B 03 00 65 00 02 D4 BE 0B 03 04 00 01 00 00 01 F3
2025-09-27 09:14:34,0B 03 00 CA 00 02 E4 9F 0B 03 04 00 FF 00 01 A1 C3
2025-09-27 09:14:35,0B 03 00 3F 00 01 B4 AC 0B 03 02 00 02 A1 84
2025-09-27 09:14:35,0B 03 01 5E 00 01 E4 8E 0B 03 02 00 00 20 45
2025-09-27 09:14:35,0B 03 01 58 00 01 04 8F 0B 03 02 00 00 20 45
2025-09-27 09:14:36,0B 06 01 91 01 5E 59 19 0B 06 01 91 01 5E 59 19
2025-09-27 09:14:36,0B 06 01 96 00 64 69 5B 0B 86 03 22 63
2025-09-27 09:14:36,0B 06 01 97 00 78 39 52 0B 06 01 97 00 78 39 52
2025-09-27 09:14:37,0B 06 00 2C 00 02 C9 68 0B 06 00 2C 00 02 C9 68
2025-09-27 09:14:37,0B 03 00 01 00 01 D5 60 0B 03 02 00 A5 E0 3E
2025-09-27 09:14:37,0B 03 00 03 00 03 F5 61 0B 03 06 01 00 01 17 00 CA 6F AB
2025-09-27 09:14:38,0B 03 00 65 00 02 D4 BE 0B 03 04 00 01 00 00 01 F3
2025-09-27 09:14:38,0B 03 00 CA 00 02 E4 9F 0B 03 04 00 FF 00 01 A1 C3
2025-09-27 09:14:38,0B 03 00 3F 00 01 B4 AC 0B 03 02 00 02 A1 84
2025-09-27 09:14:39,0B 03 01 5E 00 01 E4 8E 0B 03 02 00 00 20 45
2025-09-27 09:14:39,0B 03 01 58 00 01 04 8F 0B 03 02 00 00 20 45
2025-09-27 09:14:39,0B 06 01 91 01 5E 59 19 0B 06 01 91 01 5E 59 19
2025-09-27 09:14:40,0B 06 01 96 00 64 69 5B 0B 86 03 22 63
2025-09-27 09:14:40,0B 06 01 97 00 78 39 52 0B 06 01 97 00 78 39 52
2025-09-27 09:14:40,0B 06 00 2C 00 02 C9 68 0B 06 00 2C 00 02 C9 68
2025-09-27 09:14:41,0B 03 00 01 00 01 D5 60 0B 03 02 00 A5 E0 3E
2025-09-27 09:14:41,0B 03 00 03 00 03 F5 61 0B 03 06 01 00 01 17 00 CB AE 6B
2025-09-27 09:14:41,0B 03 00 65 00 02 D4 BE 0B 03 04 00 01 00 00 01 F3
2025-09-27 09:14:42,0B 03 00 CA 00 02 E4 9F 0B 03 04 00 FF 00 01 A1 C3
2025-09-27 09:14:42,0B 03 00 3F 00 01 B4 AC 0B 03 02 00 02 A1 84
2025-09-27 09:14:42,0B 03 01 5E 00 01 E4 8E 0B 03 02 00 00 20 45
2025-09-27 09:14:43,0B 03 01 58 00 01 04 8F 0B 03 02 00 00 20 45
2025-09-27 09:14:43,0B 06 01 91 01 5E 59 19 0B 06 01 91 01 5E 59 19
2025-09-27 09:14:43,0B 06 01 96 00 64 69 5B 0B 86 03 22 63
2025-09-27 09:14:44,0B 06 01 97 00 78 39 52 0B 06 01 97 00 78 39 52
2025-09-27 09:14:44,0B 06 00 2C 00 02 C9 68 0B 06 00 2C 00 02 C9 68
2025-09-27 09:14:44,0B 03 00 01 00 01 D5 60 0B 03 02 00 A5 E0 3E
